
T22CC 000:299 SEGGER J-Link V4.96d Log File (0001ms, 0281ms total)
T22CC 000:299 DLL Compiled: Jan 29 2015 11:45:37 (0001ms, 0281ms total)
T22CC 000:299 Logging started @ 2015-04-09 20:00 (0001ms, 0281ms total)
T22CC 000:300 JLINK_SetWarnOutHandler(...) (0000ms, 0281ms total)
T22CC 000:300 JLINK_OpenEx(...)
Firmware: J-Link ARM V8 compiled Nov 28 2014 13:44:46
Hardware: V8.00
S/N: 17935099
Feature(s): RDI,FlashDL,FlashBP,JFlash  returns O.K. (0273ms, 0554ms total)
T22CC 000:573 JLINK_SetErrorOutHandler(...) (0000ms, 0554ms total)
T22CC 000:573 JLINK_ExecCommand("ProjectFile = "F:\OperatingSys\EmbeddedLove\STM32F103ZET6\www.own.com.cn\LEDSH\APP\JLinkSettings.ini"", ...)  returns 0x00 (0002ms, 0556ms total)
T22CC 000:575 JLINK_ExecCommand("Device = STM32F103ZE", ...)Device "STM32F103ZE" selected.  returns 0x00 (0003ms, 0559ms total)
T22CC 000:578 JLINK_ExecCommand("DisableConnectionTimeout", ...)  returns 0x01 (0000ms, 0559ms total)
T22CC 000:578 JLINK_GetHardwareVersion()  returns 0x13880 (0000ms, 0559ms total)
T22CC 000:578 JLINK_GetDLLVersion()  returns 49604 (0000ms, 0559ms total)
T22CC 000:578 JLINK_GetFirmwareString(...) (0000ms, 0559ms total)
T22CC 000:582 JLINK_GetDLLVersion()  returns 49604 (0001ms, 0560ms total)
T22CC 000:583 JLINK_GetCompileDateTime() (0000ms, 0560ms total)
T22CC 000:584 JLINK_GetFirmwareString(...) (0000ms, 0560ms total)
T22CC 000:585 JLINK_GetHardwareVersion()  returns 0x13880 (0000ms, 0560ms total)
T22CC 000:589 JLINK_TIF_Select(JLINKARM_TIF_JTAG)  returns 0x00 (0006ms, 0566ms total)
T22CC 000:595 JLINK_SetSpeed(50000) (0001ms, 0567ms total)
T22CC 000:596 JLINK_GetIdData(...) >0x2F8 JTAG>TotalIRLen = 9, IRPrint = 0x0011 >0x30 JTAG> >0x210 JTAG> >0x40 JTAG> >0x40 JTAG> >0x40 JTAG> >0x30 JTAG> >0x40 JTAG> >0x40 JTAG> >0x40 JTAG> >0x40 JTAG> >0x40 JTAG> >0x40 JTAG> >0x40 JTAG> >0x40 JTAG> >0x2F8 JTAG>TotalIRLen = 9, IRPrint = 0x0011 >0x30 JTAG> >0x210 JTAG> >0x70 JTAG> >0x40 JTAG> >0x40 JTAG> >0x40 JTAG> >0x50 JTAG> >0x80 JTAG> >0x40 JTAG> >0x30 JTAG> >0x40 JTAG> >0x40 JTAG> >0x30 JTAG> >0x40 JTAG> >0x50 JTAG>
Found Cortex-M3 r1p1, Little endian. -- CPU_WriteMem(4 bytes @ 0xE0002000) -- CPU_ReadMem(4 bytes @ 0xE000EDF0) -- CPU_ReadMem(4 bytes @ 0xE0002000)FPUnit: 6 code (BP) slots and 2 literal slots -- CPU_ReadMem(4 bytes @ 0xE000EDFC) -- CPU_ReadMem(4 bytes @ 0xE0001000) -- CPU_WriteMem(4 bytes @ 0xE0001000) -- CPU_ReadMem(4 bytes @ 0xE000ED88) -- CPU_WriteMem(4 bytes @ 0xE000ED88) -- CPU_ReadMem(4 bytes @ 0xE000ED88) -- CPU_WriteMem(4 bytes @ 0xE000ED88) -- CPU_ReadMem(4 bytes @ 0xE00FF010)TPIU fitted.
 -- CPU_ReadMem(4 bytes @ 0xE00FF014)ETM fitted. -- CPU_ReadMem(4 bytes @ 0xE00FF018) ScanLen=9 NumDevices=2 aId[0]=0x3BA00477 aIrRead[0]=0 aScanLen[0]=0 aScanRead[0]=0 (0059ms, 0626ms total)
T22CC 000:655 JLINK_JTAG_GetDeviceID(DeviceIndex = 0)  returns 0x3BA00477 (0000ms, 0626ms total)
T22CC 000:655 JLINK_JTAG_GetDeviceInfo(DeviceIndex = 0)  returns 0x00 (0000ms, 0626ms total)
T22CC 000:655 JLINK_JTAG_GetDeviceID(DeviceIndex = 1)  returns 0x6414041 (0000ms, 0626ms total)
T22CC 000:656 JLINK_JTAG_GetDeviceInfo(DeviceIndex = 1)  returns 0x00 (0000ms, 0627ms total)
T22CC 000:656 JLINK_GetDLLVersion()  returns 49604 (0000ms, 0627ms total)
T22CC 000:656 JLINK_CORE_GetFound()  returns 0x30000FF (0000ms, 0627ms total)
T22CC 000:656 JLINK_GetDebugInfo(0x100) -- Value=0xE00FF003  returns 0x00 (0000ms, 0627ms total)
T22CC 000:670 JLINK_ReadMem (0xE00FF000, 0x0020 Bytes, ...) -- CPU is running -- CPU_ReadMem(32 bytes @ 0xE00FF000) - Data: 03 F0 F0 FF 03 20 F0 FF 03 30 F0 FF 03 10 F0 FF ...  returns 0x00 (0002ms, 0629ms total)
T22CC 000:673 JLINK_ReadMem (0xE000EFF0, 0x0010 Bytes, ...) -- CPU is running -- CPU_ReadMem(16 bytes @ 0xE000EFF0) - Data: 0D 00 00 00 E0 00 00 00 05 00 00 00 B1 00 00 00  returns 0x00 (0001ms, 0630ms total)
T22CC 000:674 JLINK_ReadMem (0xE000EFD0, 0x0020 Bytes, ...) -- CPU is running -- CPU_ReadMem(32 bytes @ 0xE000EFD0) - Data: 04 00 00 00 00 00 00 00 00 00 00 00 00 00 00 00 ...  returns 0x00 (0001ms, 0631ms total)
T22CC 000:675 JLINK_ReadMem (0xE0001FF0, 0x0010 Bytes, ...) -- CPU is running -- CPU_ReadMem(16 bytes @ 0xE0001FF0) - Data: 0D 00 00 00 E0 00 00 00 05 00 00 00 B1 00 00 00  returns 0x00 (0001ms, 0632ms total)
T22CC 000:676 JLINK_ReadMem (0xE0001FD0, 0x0020 Bytes, ...) -- CPU is running -- CPU_ReadMem(32 bytes @ 0xE0001FD0) - Data: 04 00 00 00 00 00 00 00 00 00 00 00 00 00 00 00 ...  returns 0x00 (0001ms, 0633ms total)
T22CC 000:677 JLINK_ReadMem (0xE0002FF0, 0x0010 Bytes, ...) -- CPU is running -- CPU_ReadMem(16 bytes @ 0xE0002FF0) - Data: 0D 00 00 00 E0 00 00 00 05 00 00 00 B1 00 00 00  returns 0x00 (0001ms, 0634ms total)
T22CC 000:678 JLINK_ReadMem (0xE0002FD0, 0x0020 Bytes, ...) -- CPU is running -- CPU_ReadMem(32 bytes @ 0xE0002FD0) - Data: 04 00 00 00 00 00 00 00 00 00 00 00 00 00 00 00 ...  returns 0x00 (0001ms, 0635ms total)
T22CC 000:679 JLINK_ReadMem (0xE0000FF0, 0x0010 Bytes, ...) -- CPU is running -- CPU_ReadMem(16 bytes @ 0xE0000FF0) - Data: 0D 00 00 00 E0 00 00 00 05 00 00 00 B1 00 00 00  returns 0x00 (0001ms, 0636ms total)
T22CC 000:680 JLINK_ReadMem (0xE0000FD0, 0x0020 Bytes, ...) -- CPU is running -- CPU_ReadMem(32 bytes @ 0xE0000FD0) - Data: 04 00 00 00 00 00 00 00 00 00 00 00 00 00 00 00 ...  returns 0x00 (0002ms, 0638ms total)
T22CC 000:682 JLINK_ReadMem (0xE0040FF0, 0x0010 Bytes, ...) -- CPU is running -- CPU_ReadMem(16 bytes @ 0xE0040FF0) - Data: 0D 00 00 00 90 00 00 00 05 00 00 00 B1 00 00 00  returns 0x00 (0001ms, 0639ms total)
T22CC 000:683 JLINK_ReadMem (0xE0040FD0, 0x0020 Bytes, ...) -- CPU is running -- CPU_ReadMem(32 bytes @ 0xE0040FD0) - Data: 04 00 00 00 00 00 00 00 00 00 00 00 00 00 00 00 ...  returns 0x00 (0001ms, 0640ms total)
T22CC 000:684 JLINK_ReadMem (0xE0041FF0, 0x0010 Bytes, ...) -- CPU is running -- CPU_ReadMem(16 bytes @ 0xE0041FF0) - Data: 0D 00 00 00 90 00 00 00 05 00 00 00 B1 00 00 00  returns 0x00 (0001ms, 0641ms total)
T22CC 000:685 JLINK_ReadMem (0xE0041FD0, 0x0020 Bytes, ...) -- CPU is running -- CPU_ReadMem(32 bytes @ 0xE0041FD0) - Data: 04 00 00 00 00 00 00 00 00 00 00 00 00 00 00 00 ...  returns 0x00 (0001ms, 0642ms total)
T22CC 000:686 JLINK_ReadMemU32(0xE000ED00, 0x0001 Items, ...) -- CPU is running -- CPU_ReadMem(4 bytes @ 0xE000ED00) - Data: 31 C2 1F 41  returns 0x01 (0001ms, 0643ms total)
T22CC 000:687 JLINK_SetResetType(JLINKARM_RESET_TYPE_NORMAL)  returns JLINKARM_RESET_TYPE_NORMAL (0001ms, 0644ms total)
T22CC 000:688 JLINK_Reset() -- CPU is running -- CPU_WriteMem(4 bytes @ 0xE000EDF0) -- CPU is running -- CPU_WriteMem(4 bytes @ 0xE000EDFC) -- CPU is running -- CPU_WriteMem(4 bytes @ 0xE000ED0C) -- CPU is running -- CPU_ReadMem(4 bytes @ 0xE000EDF0) -- CPU is running -- CPU_ReadMem(4 bytes @ 0xE000EDF0) -- CPU is running -- CPU_WriteMem(4 bytes @ 0xE000EDF0) -- CPU is running -- CPU_WriteMem(4 bytes @ 0xE000EDFC) -- CPU is running -- CPU_ReadMem(4 bytes @ 0xE000EDF0) >0x80 JTAG> >0x40 JTAG> >0x30 JTAG>
 >0x40 JTAG> >0x50 JTAG> >0x40 JTAG> -- CPU_WriteMem(4 bytes @ 0xE000EDFC) -- CPU_WriteMem(4 bytes @ 0xE0001028) -- CPU_WriteMem(4 bytes @ 0xE0001038) -- CPU_WriteMem(4 bytes @ 0xE0001048) -- CPU_WriteMem(4 bytes @ 0xE0001058) -- CPU_WriteMem(4 bytes @ 0xE0002000) -- CPU_ReadMem(4 bytes @ 0xE000EDFC) -- CPU_ReadMem(4 bytes @ 0xE0001000) (0039ms, 0683ms total)
T22CC 000:727 JLINK_ReadReg(R15 (PC))  returns 0x08000100 (0000ms, 0683ms total)
T22CC 000:727 JLINK_ReadReg(XPSR)  returns 0x01000000 (0000ms, 0683ms total)
T22CC 000:727 JLINK_Halt()  returns 0x00 (0000ms, 0683ms total)
T22CC 000:727 JLINK_IsHalted()  returns TRUE (0000ms, 0683ms total)
T22CC 000:727 JLINK_ReadMemU32(0xE000EDF0, 0x0001 Items, ...) -- CPU_ReadMem(4 bytes @ 0xE000EDF0) - Data: 03 00 03 00  returns 0x01 (0001ms, 0684ms total)
T22CC 000:728 JLINK_WriteU32(0xE000EDF0, 0xA05F0003) -- CPU_WriteMem(4 bytes @ 0xE000EDF0)  returns 0x00 (0001ms, 0685ms total)
T22CC 000:729 JLINK_WriteU32(0xE000EDFC, 0x01000000) -- CPU_WriteMem(4 bytes @ 0xE000EDFC)  returns 0x00 (0001ms, 0686ms total)
T22CC 000:731 JLINK_GetHWStatus(...)  returns 0x00 (0001ms, 0687ms total)
T22CC 000:733 JLINK_GetNumBPUnits(Type = 0xFFFFFF00)  returns 0x06 (0000ms, 0687ms total)
T22CC 000:733 JLINK_GetNumBPUnits(Type = 0xF0)  returns 0x2000 (0000ms, 0687ms total)
T22CC 000:733 JLINK_GetNumWPUnits()  returns 0x04 (0000ms, 0687ms total)
T22CC 000:734 JLINK_GetSpeed()  returns 0x2EE0 (0000ms, 0687ms total)
T22CC 000:735 JLINK_ReadMemU32(0xE000E004, 0x0001 Items, ...) -- CPU_ReadMem(4 bytes @ 0xE000E004) - Data: 01 00 00 00  returns 0x01 (0000ms, 0687ms total)
T22CC 000:735 JLINK_ReadMemU32(0xE000E004, 0x0001 Items, ...) -- CPU_ReadMem(4 bytes @ 0xE000E004) - Data: 01 00 00 00  returns 0x01 (0002ms, 0689ms total)
T22CC 000:737 JLINK_WriteMem(0xE0001000, 0x001C Bytes, ...) - Data: 01 00 00 00 00 00 00 00 00 00 00 00 00 00 00 00 ... -- CPU_WriteMem(28 bytes @ 0xE0001000)  returns 0x1C (0002ms, 0691ms total)
T22CC 000:739 JLINK_ReadMem (0xE0001000, 0x001C Bytes, ...) -- CPU_ReadMem(28 bytes @ 0xE0001000) - Data: 01 00 00 40 00 00 00 00 00 00 00 00 00 00 00 00 ...  returns 0x00 (0001ms, 0692ms total)
T22CC 000:740 JLINK_ReadReg(R15 (PC))  returns 0x08000100 (0000ms, 0692ms total)
T22CC 000:740 JLINK_ReadReg(XPSR)  returns 0x01000000 (0000ms, 0692ms total)
T22CC 000:831 JLINK_SetResetType(JLINKARM_RESET_TYPE_NORMAL)  returns JLINKARM_RESET_TYPE_NORMAL (0000ms, 0692ms total)
T22CC 000:831 JLINK_Reset() -- CPU_WriteMem(4 bytes @ 0xE000EDF0) -- CPU_WriteMem(4 bytes @ 0xE000EDFC) -- CPU_WriteMem(4 bytes @ 0xE000ED0C) -- CPU_ReadMem(4 bytes @ 0xE000EDF0) -- CPU_ReadMem(4 bytes @ 0xE000EDF0) -- CPU_WriteMem(4 bytes @ 0xE000EDF0) -- CPU_WriteMem(4 bytes @ 0xE000EDFC) -- CPU is running -- CPU_ReadMem(4 bytes @ 0xE000EDF0) >0x80 JTAG> >0x40 JTAG> >0x30 JTAG> >0x40 JTAG> >0x50 JTAG> >0x40 JTAG> -- CPU_WriteMem(4 bytes @ 0xE000EDFC) -- CPU_WriteMem(4 bytes @ 0xE0001028)
 -- CPU_WriteMem(4 bytes @ 0xE0001038) -- CPU_WriteMem(4 bytes @ 0xE0001048) -- CPU_WriteMem(4 bytes @ 0xE0001058) -- CPU_WriteMem(4 bytes @ 0xE0002000) -- CPU_ReadMem(4 bytes @ 0xE000EDFC) -- CPU_ReadMem(4 bytes @ 0xE0001000) (0037ms, 0729ms total)
T22CC 000:868 JLINK_ReadReg(R15 (PC))  returns 0x08000100 (0000ms, 0729ms total)
T22CC 000:868 JLINK_ReadReg(XPSR)  returns 0x01000000 (0000ms, 0729ms total)
T22CC 000:868 JLINK_ReadMemU32(0xE0001004, 0x0001 Items, ...) -- CPU_ReadMem(4 bytes @ 0xE0001004) - Data: FD 01 00 00  returns 0x01 (0001ms, 0730ms total)
T22CC 000:872 JLINK_ReadMem (0x08000100, 0x003C Bytes, ...) -- CPU_ReadMem(64 bytes @ 0x08000100) -- Updating C cache (64 bytes @ 0x08000100) -- Read from C cache (60 bytes @ 0x08000100) - Data: 04 48 00 47 FE E7 FE E7 FE E7 FE E7 FE E7 FE E7 ...  returns 0x00 (0001ms, 0731ms total)
T22CC 002:011 JLINK_ReadMem (0x00000000, 0x001E Bytes, ...) -- CPU_ReadMem(4 bytes @ 0x00000004) -- CPU_ReadMem(64 bytes @ 0x08000000) -- Updating C cache (64 bytes @ 0x08000000) -- Read from C cache (30 bytes @ 0x08000000) - Data: 28 19 00 20 01 01 00 08 05 01 00 08 07 01 00 08 ...  returns 0x00 (0002ms, 0733ms total)
T22CC 002:230 JLINK_ReadMem (0x00000000, 0x002E Bytes, ...) -- Read from C cache (46 bytes @ 0x08000000) - Data: 28 19 00 20 01 01 00 08 05 01 00 08 07 01 00 08 ...  returns 0x00 (0000ms, 0733ms total)
T1D08 002:566 JLINK_SetBPEx(Addr = 0x08001150, Type = 0xFFFFFFF2)  returns 0x00000001 (0000ms, 0733ms total)
T1D08 002:566 JLINK_Go() -- CPU_WriteMem(4 bytes @ 0xE0002008) -- CPU_WriteMem(4 bytes @ 0xE000200C) -- CPU_WriteMem(4 bytes @ 0xE0002010) -- CPU_WriteMem(4 bytes @ 0xE0002014) -- CPU_WriteMem(4 bytes @ 0xE0002018) -- CPU_WriteMem(4 bytes @ 0xE000201C) -- CPU_WriteMem(4 bytes @ 0xE0001004) (0009ms, 0742ms total)
T1D08 002:676 JLINK_IsHalted()  returns TRUE (0002ms, 0744ms total)
T1D08 002:678 JLINK_Halt()  returns 0x00 (0000ms, 0742ms total)
T1D08 002:678 JLINK_IsHalted()  returns TRUE (0000ms, 0742ms total)
T1D08 002:678 JLINK_IsHalted()  returns TRUE (0000ms, 0742ms total)
T1D08 002:678 JLINK_IsHalted()  returns TRUE (0000ms, 0742ms total)
T1D08 002:678 JLINK_ReadReg(R15 (PC))  returns 0x08001150 (0000ms, 0742ms total)
T1D08 002:678 JLINK_ReadReg(XPSR)  returns 0x21000000 (0000ms, 0742ms total)
T1D08 002:678 JLINK_ClrBPEx(BPHandle = 0x00000001)  returns 0x00 (0000ms, 0742ms total)
T1D08 002:678 JLINK_ReadMemU32(0xE000ED30, 0x0001 Items, ...) -- CPU_ReadMem(4 bytes @ 0xE000ED30) - Data: 03 00 00 00  returns 0x01 (0001ms, 0743ms total)
T1D08 002:679 JLINK_ReadMemU32(0xE0001028, 0x0001 Items, ...) -- CPU_ReadMem(4 bytes @ 0xE0001028) - Data: 00 00 00 00  returns 0x01 (0001ms, 0744ms total)
T1D08 002:680 JLINK_ReadMemU32(0xE0001038, 0x0001 Items, ...) -- CPU_ReadMem(4 bytes @ 0xE0001038) - Data: 00 02 00 00  returns 0x01 (0001ms, 0745ms total)
T1D08 002:681 JLINK_ReadMemU32(0xE0001048, 0x0001 Items, ...) -- CPU_ReadMem(4 bytes @ 0xE0001048) - Data: 00 00 00 00  returns 0x01 (0001ms, 0746ms total)
T1D08 002:682 JLINK_ReadMemU32(0xE0001058, 0x0001 Items, ...) -- CPU_ReadMem(4 bytes @ 0xE0001058) - Data: 00 00 00 00  returns 0x01 (0001ms, 0747ms total)
T1D08 002:683 JLINK_ReadReg(R0)  returns 0x20001128 (0000ms, 0747ms total)
T1D08 002:683 JLINK_ReadReg(R1)  returns 0x20001528 (0000ms, 0747ms total)
T1D08 002:683 JLINK_ReadReg(R2)  returns 0x20001528 (0000ms, 0747ms total)
T1D08 002:683 JLINK_ReadReg(R3)  returns 0x20001528 (0000ms, 0747ms total)
T1D08 002:683 JLINK_ReadReg(R4)  returns 0x00000000 (0000ms, 0747ms total)
T1D08 002:683 JLINK_ReadReg(R5)  returns 0x200010C4 (0000ms, 0747ms total)
T1D08 002:683 JLINK_ReadReg(R6)  returns 0x00000000 (0000ms, 0747ms total)
T1D08 002:683 JLINK_ReadReg(R7)  returns 0x00000000 (0000ms, 0747ms total)
T1D08 002:683 JLINK_ReadReg(R8)  returns 0x00000000 (0000ms, 0747ms total)
T1D08 002:683 JLINK_ReadReg(R9)  returns 0x09090909 (0000ms, 0747ms total)
T1D08 002:683 JLINK_ReadReg(R10)  returns 0x080012B0 (0000ms, 0747ms total)
T1D08 002:684 JLINK_ReadReg(R11)  returns 0x00000000 (0000ms, 0748ms total)
T1D08 002:684 JLINK_ReadReg(R12)  returns 0x20001104 (0000ms, 0748ms total)
T1D08 002:684 JLINK_ReadReg(R13 (SP))  returns 0x20001928 (0000ms, 0748ms total)
T1D08 002:684 JLINK_ReadReg(R14)  returns 0x080001A3 (0000ms, 0748ms total)
T1D08 002:684 JLINK_ReadReg(R15 (PC))  returns 0x08001150 (0000ms, 0748ms total)
T1D08 002:684 JLINK_ReadReg(XPSR)  returns 0x21000000 (0000ms, 0748ms total)
T1D08 002:684 JLINK_ReadReg(MSP)  returns 0x20001928 (0000ms, 0748ms total)
T1D08 002:684 JLINK_ReadReg(PSP)  returns 0x20000B98 (0000ms, 0748ms total)
T1D08 002:684 JLINK_ReadReg(CFBP)  returns 0x00000000 (0000ms, 0748ms total)
T22CC 002:691 JLINK_ReadMemU32(0xE0001004, 0x0001 Items, ...) -- CPU_ReadMem(4 bytes @ 0xE0001004) - Data: 4F 0D 00 00  returns 0x01 (0001ms, 0749ms total)
T1D08 006:043 JLINK_ReadMem (0x08001150, 0x003C Bytes, ...) -- CPU_ReadMem(128 bytes @ 0x08001140) -- Updating C cache (128 bytes @ 0x08001140) -- Read from C cache (60 bytes @ 0x08001150) - Data: 10 B5 FF F7 91 F8 FF F7 05 FA FF F7 12 F9 09 48 ...  returns 0x00 (0003ms, 0752ms total)
T1D08 006:046 JLINK_Step() -- Read from C cache (2 bytes @ 0x08001150) -- CPU_WriteMem(8 bytes @ 0x20001920) -- Simulated  returns 0x00 (0002ms, 0754ms total)
T1D08 006:048 JLINK_ReadReg(R15 (PC))  returns 0x08001152 (0000ms, 0754ms total)
T1D08 006:048 JLINK_ReadReg(XPSR)  returns 0x21000000 (0000ms, 0754ms total)
T1D08 006:048 JLINK_ReadReg(R0)  returns 0x20001128 (0000ms, 0754ms total)
T1D08 006:048 JLINK_ReadReg(R1)  returns 0x20001528 (0000ms, 0754ms total)
T1D08 006:048 JLINK_ReadReg(R2)  returns 0x20001528 (0000ms, 0754ms total)
T1D08 006:048 JLINK_ReadReg(R3)  returns 0x20001528 (0000ms, 0754ms total)
T1D08 006:048 JLINK_ReadReg(R4)  returns 0x00000000 (0000ms, 0754ms total)
T1D08 006:048 JLINK_ReadReg(R5)  returns 0x200010C4 (0000ms, 0754ms total)
T1D08 006:048 JLINK_ReadReg(R6)  returns 0x00000000 (0000ms, 0754ms total)
T1D08 006:048 JLINK_ReadReg(R7)  returns 0x00000000 (0000ms, 0754ms total)
T1D08 006:048 JLINK_ReadReg(R8)  returns 0x00000000 (0000ms, 0754ms total)
T1D08 006:048 JLINK_ReadReg(R9)  returns 0x09090909 (0000ms, 0754ms total)
T1D08 006:048 JLINK_ReadReg(R10)  returns 0x080012B0 (0000ms, 0754ms total)
T1D08 006:048 JLINK_ReadReg(R11)  returns 0x00000000 (0000ms, 0754ms total)
T1D08 006:048 JLINK_ReadReg(R12)  returns 0x20001104 (0000ms, 0754ms total)
T1D08 006:048 JLINK_ReadReg(R13 (SP))  returns 0x20001920 (0000ms, 0754ms total)
T1D08 006:049 JLINK_ReadReg(R14)  returns 0x080001A3 (0000ms, 0755ms total)
T1D08 006:049 JLINK_ReadReg(R15 (PC))  returns 0x08001152 (0000ms, 0755ms total)
T1D08 006:049 JLINK_ReadReg(XPSR)  returns 0x21000000 (0000ms, 0755ms total)
T1D08 006:049 JLINK_ReadReg(MSP)  returns 0x20001920 (0000ms, 0755ms total)
T1D08 006:049 JLINK_ReadReg(PSP)  returns 0x20000B98 (0000ms, 0755ms total)
T1D08 006:049 JLINK_ReadReg(CFBP)  returns 0x00000000 (0000ms, 0755ms total)
T22CC 006:050 JLINK_ReadMem (0x20001924, 0x0004 Bytes, ...) -- CPU_ReadMem(64 bytes @ 0x20001900) -- Updating C cache (64 bytes @ 0x20001900) -- Read from C cache (4 bytes @ 0x20001924) - Data: A3 01 00 08  returns 0x00 (0001ms, 0756ms total)
T22CC 006:051 JLINK_ReadMemU32(0xE0001004, 0x0001 Items, ...) - Data: 4F 0D 00 00  returns 0x01 (0000ms, 0756ms total)
T22CC 006:055 JLINK_ReadMem (0x08001152, 0x0002 Bytes, ...) -- Read from C cache (2 bytes @ 0x08001152) - Data: FF F7  returns 0x00 (0000ms, 0756ms total)
T22CC 006:055 JLINK_ReadMem (0x08001154, 0x003C Bytes, ...) -- Read from C cache (60 bytes @ 0x08001154) - Data: 91 F8 FF F7 05 FA FF F7 12 F9 09 48 C8 21 01 60 ...  returns 0x00 (0000ms, 0756ms total)
T1D08 006:893 JLINK_Step() -- Read from C cache (2 bytes @ 0x08001152) -- Read from C cache (2 bytes @ 0x08001154) -- Simulated  returns 0x00 (0002ms, 0758ms total)
T1D08 006:895 JLINK_ReadReg(R15 (PC))  returns 0x08000278 (0000ms, 0758ms total)
T1D08 006:895 JLINK_ReadReg(XPSR)  returns 0x21000000 (0000ms, 0758ms total)
T1D08 006:895 JLINK_ReadReg(R0)  returns 0x20001128 (0000ms, 0758ms total)
T1D08 006:895 JLINK_ReadReg(R1)  returns 0x20001528 (0000ms, 0758ms total)
T1D08 006:895 JLINK_ReadReg(R2)  returns 0x20001528 (0000ms, 0758ms total)
T1D08 006:895 JLINK_ReadReg(R3)  returns 0x20001528 (0000ms, 0758ms total)
T1D08 006:895 JLINK_ReadReg(R4)  returns 0x00000000 (0000ms, 0758ms total)
T1D08 006:895 JLINK_ReadReg(R5)  returns 0x200010C4 (0000ms, 0758ms total)
T1D08 006:895 JLINK_ReadReg(R6)  returns 0x00000000 (0000ms, 0758ms total)
T1D08 006:895 JLINK_ReadReg(R7)  returns 0x00000000 (0000ms, 0758ms total)
T1D08 006:895 JLINK_ReadReg(R8)  returns 0x00000000 (0000ms, 0758ms total)
T1D08 006:895 JLINK_ReadReg(R9)  returns 0x09090909 (0000ms, 0758ms total)
T1D08 006:895 JLINK_ReadReg(R10)  returns 0x080012B0 (0000ms, 0758ms total)
T1D08 006:895 JLINK_ReadReg(R11)  returns 0x00000000 (0000ms, 0758ms total)
T1D08 006:895 JLINK_ReadReg(R12)  returns 0x20001104 (0000ms, 0758ms total)
T1D08 006:895 JLINK_ReadReg(R13 (SP))  returns 0x20001920 (0000ms, 0758ms total)
T1D08 006:895 JLINK_ReadReg(R14)  returns 0x08001157 (0000ms, 0758ms total)
T1D08 006:895 JLINK_ReadReg(R15 (PC))  returns 0x08000278 (0000ms, 0758ms total)
T1D08 006:895 JLINK_ReadReg(XPSR)  returns 0x21000000 (0000ms, 0758ms total)
T1D08 006:895 JLINK_ReadReg(MSP)  returns 0x20001920 (0000ms, 0758ms total)
T1D08 006:895 JLINK_ReadReg(PSP)  returns 0x20000B98 (0001ms, 0759ms total)
T1D08 006:896 JLINK_ReadReg(CFBP)  returns 0x00000000 (0000ms, 0759ms total)
T22CC 006:908 JLINK_ReadMemU32(0xE0001004, 0x0001 Items, ...) - Data: 4F 0D 00 00  returns 0x01 (0000ms, 0759ms total)
T22CC 006:912 JLINK_ReadMem (0x08000278, 0x003C Bytes, ...) -- CPU_ReadMem(128 bytes @ 0x08000240) -- Updating C cache (128 bytes @ 0x08000240) -- Read from C cache (60 bytes @ 0x08000278) - Data: 72 B6 70 47 62 B6 70 47 EF F3 10 80 72 B6 70 47 ...  returns 0x00 (0002ms, 0761ms total)
T1D08 007:387 JLINK_Step() -- Read from C cache (2 bytes @ 0x08000278) -- Not simulated -- CPU_WriteMem(4 bytes @ 0xE0002008) -- CPU_WriteMem(4 bytes @ 0xE0001004)  returns 0x00 (0008ms, 0769ms total)
T1D08 007:395 JLINK_ReadReg(R15 (PC))  returns 0x0800027A (0001ms, 0770ms total)
T1D08 007:396 JLINK_ReadReg(XPSR)  returns 0x21000000 (0000ms, 0770ms total)
T1D08 007:396 JLINK_ReadReg(R0)  returns 0x20001128 (0000ms, 0770ms total)
T1D08 007:396 JLINK_ReadReg(R1)  returns 0x20001528 (0000ms, 0770ms total)
T1D08 007:396 JLINK_ReadReg(R2)  returns 0x20001528 (0000ms, 0770ms total)
T1D08 007:396 JLINK_ReadReg(R3)  returns 0x20001528 (0000ms, 0770ms total)
T1D08 007:396 JLINK_ReadReg(R4)  returns 0x00000000 (0000ms, 0770ms total)
T1D08 007:396 JLINK_ReadReg(R5)  returns 0x200010C4 (0000ms, 0770ms total)
T1D08 007:396 JLINK_ReadReg(R6)  returns 0x00000000 (0000ms, 0770ms total)
T1D08 007:396 JLINK_ReadReg(R7)  returns 0x00000000 (0000ms, 0770ms total)
T1D08 007:396 JLINK_ReadReg(R8)  returns 0x00000000 (0000ms, 0770ms total)
T1D08 007:396 JLINK_ReadReg(R9)  returns 0x09090909 (0000ms, 0770ms total)
T1D08 007:396 JLINK_ReadReg(R10)  returns 0x080012B0 (0000ms, 0770ms total)
T1D08 007:396 JLINK_ReadReg(R11)  returns 0x00000000 (0000ms, 0770ms total)
T1D08 007:396 JLINK_ReadReg(R12)  returns 0x20001104 (0000ms, 0770ms total)
T1D08 007:396 JLINK_ReadReg(R13 (SP))  returns 0x20001920 (0000ms, 0770ms total)
T1D08 007:396 JLINK_ReadReg(R14)  returns 0x08001157 (0000ms, 0770ms total)
T1D08 007:396 JLINK_ReadReg(R15 (PC))  returns 0x0800027A (0001ms, 0771ms total)
T1D08 007:397 JLINK_ReadReg(XPSR)  returns 0x21000000 (0000ms, 0771ms total)
T1D08 007:397 JLINK_ReadReg(MSP)  returns 0x20001920 (0000ms, 0771ms total)
T1D08 007:397 JLINK_ReadReg(PSP)  returns 0x20000B98 (0000ms, 0771ms total)
T1D08 007:397 JLINK_ReadReg(CFBP)  returns 0x00000001 (0000ms, 0771ms total)
T22CC 007:400 JLINK_ReadMemU32(0xE0001004, 0x0001 Items, ...) -- CPU_ReadMem(4 bytes @ 0xE0001004) - Data: 55 0D 00 00  returns 0x01 (0002ms, 0773ms total)
T1D08 007:883 JLINK_ReadMem (0x0800027A, 0x0002 Bytes, ...) -- CPU_ReadMem(64 bytes @ 0x08000240) -- Updating C cache (64 bytes @ 0x08000240) -- Read from C cache (2 bytes @ 0x0800027A) - Data: 70 47  returns 0x00 (0002ms, 0775ms total)
T1D08 007:885 JLINK_ReadMem (0x0800027C, 0x003C Bytes, ...) -- CPU_ReadMem(64 bytes @ 0x08000280) -- Updating C cache (64 bytes @ 0x08000280) -- Read from C cache (60 bytes @ 0x0800027C) - Data: 62 B6 70 47 EF F3 10 80 72 B6 70 47 80 F3 10 88 ...  returns 0x00 (0002ms, 0777ms total)
T1D08 007:887 JLINK_Step() -- Read from C cache (2 bytes @ 0x0800027A) -- Simulated  returns 0x00 (0000ms, 0777ms total)
T1D08 007:887 JLINK_ReadReg(R15 (PC))  returns 0x08001156 (0000ms, 0777ms total)
T1D08 007:887 JLINK_ReadReg(XPSR)  returns 0x21000000 (0000ms, 0777ms total)
T1D08 007:887 JLINK_ReadReg(R0)  returns 0x20001128 (0000ms, 0777ms total)
T1D08 007:887 JLINK_ReadReg(R1)  returns 0x20001528 (0000ms, 0777ms total)
T1D08 007:887 JLINK_ReadReg(R2)  returns 0x20001528 (0000ms, 0777ms total)
T1D08 007:887 JLINK_ReadReg(R3)  returns 0x20001528 (0000ms, 0777ms total)
T1D08 007:887 JLINK_ReadReg(R4)  returns 0x00000000 (0000ms, 0777ms total)
T1D08 007:887 JLINK_ReadReg(R5)  returns 0x200010C4 (0000ms, 0777ms total)
T1D08 007:887 JLINK_ReadReg(R6)  returns 0x00000000 (0000ms, 0777ms total)
T1D08 007:887 JLINK_ReadReg(R7)  returns 0x00000000 (0000ms, 0777ms total)
T1D08 007:887 JLINK_ReadReg(R8)  returns 0x00000000 (0000ms, 0777ms total)
T1D08 007:887 JLINK_ReadReg(R9)  returns 0x09090909 (0000ms, 0777ms total)
T1D08 007:887 JLINK_ReadReg(R10)  returns 0x080012B0 (0000ms, 0777ms total)
T1D08 007:887 JLINK_ReadReg(R11)  returns 0x00000000 (0000ms, 0777ms total)
T1D08 007:887 JLINK_ReadReg(R12)  returns 0x20001104 (0000ms, 0777ms total)
T1D08 007:887 JLINK_ReadReg(R13 (SP))  returns 0x20001920 (0000ms, 0777ms total)
T1D08 007:887 JLINK_ReadReg(R14)  returns 0x08001157 (0000ms, 0777ms total)
T1D08 007:887 JLINK_ReadReg(R15 (PC))  returns 0x08001156 (0000ms, 0777ms total)
T1D08 007:887 JLINK_ReadReg(XPSR)  returns 0x21000000 (0000ms, 0777ms total)
T1D08 007:887 JLINK_ReadReg(MSP)  returns 0x20001920 (0000ms, 0777ms total)
T1D08 007:887 JLINK_ReadReg(PSP)  returns 0x20000B98 (0000ms, 0777ms total)
T1D08 007:888 JLINK_ReadReg(CFBP)  returns 0x00000001 (0000ms, 0777ms total)
T22CC 007:888 JLINK_ReadMem (0x20001924, 0x0004 Bytes, ...) -- CPU_ReadMem(64 bytes @ 0x20001900) -- Updating C cache (64 bytes @ 0x20001900) -- Read from C cache (4 bytes @ 0x20001924) - Data: A3 01 00 08  returns 0x00 (0002ms, 0779ms total)
T22CC 007:894 JLINK_ReadMemU32(0xE0001004, 0x0001 Items, ...) - Data: 55 0D 00 00  returns 0x01 (0000ms, 0779ms total)
T22CC 007:900 JLINK_ReadMem (0x08001156, 0x0002 Bytes, ...) -- CPU_ReadMem(64 bytes @ 0x08001140) -- Updating C cache (64 bytes @ 0x08001140) -- Read from C cache (2 bytes @ 0x08001156) - Data: FF F7  returns 0x00 (0002ms, 0781ms total)
T22CC 007:902 JLINK_ReadMem (0x08001158, 0x003C Bytes, ...) -- CPU_ReadMem(64 bytes @ 0x08001180) -- Updating C cache (64 bytes @ 0x08001180) -- Read from C cache (60 bytes @ 0x08001158) - Data: 05 FA FF F7 12 F9 09 48 C8 21 01 60 41 60 02 23 ...  returns 0x00 (0002ms, 0783ms total)
T22CC 007:919 JLINK_ReadMem (0x08001152, 0x0002 Bytes, ...) -- Read from C cache (2 bytes @ 0x08001152) - Data: FF F7  returns 0x00 (0001ms, 0784ms total)
T22CC 007:920 JLINK_ReadMem (0x08001154, 0x003C Bytes, ...) -- Read from C cache (60 bytes @ 0x08001154) - Data: 91 F8 FF F7 05 FA FF F7 12 F9 09 48 C8 21 01 60 ...  returns 0x00 (0000ms, 0784ms total)
T1D08 009:335 JLINK_Step() -- Read from C cache (2 bytes @ 0x08001156) -- Read from C cache (2 bytes @ 0x08001158) -- Simulated  returns 0x00 (0002ms, 0786ms total)
T1D08 009:337 JLINK_ReadReg(R15 (PC))  returns 0x08000564 (0000ms, 0786ms total)
T1D08 009:337 JLINK_ReadReg(XPSR)  returns 0x21000000 (0000ms, 0786ms total)
T1D08 009:337 JLINK_ReadReg(R0)  returns 0x20001128 (0000ms, 0786ms total)
T1D08 009:337 JLINK_ReadReg(R1)  returns 0x20001528 (0000ms, 0786ms total)
T1D08 009:337 JLINK_ReadReg(R2)  returns 0x20001528 (0000ms, 0786ms total)
T1D08 009:337 JLINK_ReadReg(R3)  returns 0x20001528 (0000ms, 0786ms total)
T1D08 009:337 JLINK_ReadReg(R4)  returns 0x00000000 (0000ms, 0786ms total)
T1D08 009:337 JLINK_ReadReg(R5)  returns 0x200010C4 (0000ms, 0786ms total)
T1D08 009:337 JLINK_ReadReg(R6)  returns 0x00000000 (0000ms, 0786ms total)
T1D08 009:337 JLINK_ReadReg(R7)  returns 0x00000000 (0000ms, 0786ms total)
T1D08 009:337 JLINK_ReadReg(R8)  returns 0x00000000 (0000ms, 0786ms total)
T1D08 009:337 JLINK_ReadReg(R9)  returns 0x09090909 (0000ms, 0786ms total)
T1D08 009:337 JLINK_ReadReg(R10)  returns 0x080012B0 (0000ms, 0786ms total)
T1D08 009:337 JLINK_ReadReg(R11)  returns 0x00000000 (0000ms, 0786ms total)
T1D08 009:337 JLINK_ReadReg(R12)  returns 0x20001104 (0000ms, 0786ms total)
T1D08 009:337 JLINK_ReadReg(R13 (SP))  returns 0x20001920 (0000ms, 0786ms total)
T1D08 009:337 JLINK_ReadReg(R14)  returns 0x0800115B (0000ms, 0786ms total)
T1D08 009:337 JLINK_ReadReg(R15 (PC))  returns 0x08000564 (0000ms, 0786ms total)
T1D08 009:337 JLINK_ReadReg(XPSR)  returns 0x21000000 (0000ms, 0786ms total)
T1D08 009:337 JLINK_ReadReg(MSP)  returns 0x20001920 (0000ms, 0786ms total)
T1D08 009:337 JLINK_ReadReg(PSP)  returns 0x20000B98 (0000ms, 0786ms total)
T1D08 009:337 JLINK_ReadReg(CFBP)  returns 0x00000001 (0000ms, 0786ms total)
T22CC 009:343 JLINK_ReadMem (0x20001924, 0x0004 Bytes, ...) -- Read from C cache (4 bytes @ 0x20001924) - Data: A3 01 00 08  returns 0x00 (0000ms, 0786ms total)
T22CC 009:347 JLINK_ReadMemU32(0xE0001004, 0x0001 Items, ...) - Data: 55 0D 00 00  returns 0x01 (0001ms, 0787ms total)
T22CC 009:353 JLINK_ReadMem (0x08000564, 0x003C Bytes, ...) -- CPU_ReadMem(128 bytes @ 0x08000540) -- Updating C cache (128 bytes @ 0x08000540) -- Read from C cache (60 bytes @ 0x08000564) - Data: 10 B5 00 F0 12 F8 00 F0 E3 FA 00 F0 F1 FA 00 F0 ...  returns 0x00 (0002ms, 0789ms total)
T1D08 011:125 JLINK_Step() -- Read from C cache (2 bytes @ 0x08000564) -- CPU_WriteMem(8 bytes @ 0x20001918) -- Simulated  returns 0x00 (0003ms, 0792ms total)
T1D08 011:128 JLINK_ReadReg(R15 (PC))  returns 0x08000566 (0000ms, 0792ms total)
T1D08 011:128 JLINK_ReadReg(XPSR)  returns 0x21000000 (0000ms, 0792ms total)
T1D08 011:128 JLINK_ReadReg(R0)  returns 0x20001128 (0000ms, 0792ms total)
T1D08 011:128 JLINK_ReadReg(R1)  returns 0x20001528 (0000ms, 0792ms total)
T1D08 011:128 JLINK_ReadReg(R2)  returns 0x20001528 (0000ms, 0792ms total)
T1D08 011:128 JLINK_ReadReg(R3)  returns 0x20001528 (0000ms, 0792ms total)
T1D08 011:128 JLINK_ReadReg(R4)  returns 0x00000000 (0000ms, 0792ms total)
T1D08 011:128 JLINK_ReadReg(R5)  returns 0x200010C4 (0000ms, 0792ms total)
T1D08 011:128 JLINK_ReadReg(R6)  returns 0x00000000 (0000ms, 0792ms total)
T1D08 011:128 JLINK_ReadReg(R7)  returns 0x00000000 (0000ms, 0792ms total)
T1D08 011:128 JLINK_ReadReg(R8)  returns 0x00000000 (0000ms, 0792ms total)
T1D08 011:128 JLINK_ReadReg(R9)  returns 0x09090909 (0000ms, 0792ms total)
T1D08 011:128 JLINK_ReadReg(R10)  returns 0x080012B0 (0000ms, 0792ms total)
T1D08 011:128 JLINK_ReadReg(R11)  returns 0x00000000 (0000ms, 0792ms total)
T1D08 011:128 JLINK_ReadReg(R12)  returns 0x20001104 (0000ms, 0792ms total)
T1D08 011:128 JLINK_ReadReg(R13 (SP))  returns 0x20001918 (0000ms, 0792ms total)
T1D08 011:128 JLINK_ReadReg(R14)  returns 0x0800115B (0000ms, 0792ms total)
T1D08 011:128 JLINK_ReadReg(R15 (PC))  returns 0x08000566 (0000ms, 0792ms total)
T1D08 011:128 JLINK_ReadReg(XPSR)  returns 0x21000000 (0000ms, 0792ms total)
T1D08 011:128 JLINK_ReadReg(MSP)  returns 0x20001918 (0000ms, 0792ms total)
T1D08 011:128 JLINK_ReadReg(PSP)  returns 0x20000B98 (0000ms, 0792ms total)
T1D08 011:128 JLINK_ReadReg(CFBP)  returns 0x00000001 (0000ms, 0792ms total)
T22CC 011:130 JLINK_ReadMem (0x2000191C, 0x0004 Bytes, ...) -- CPU_ReadMem(64 bytes @ 0x20001900) -- Updating C cache (64 bytes @ 0x20001900) -- Read from C cache (4 bytes @ 0x2000191C) - Data: 5B 11 00 08  returns 0x00 (0002ms, 0794ms total)
T22CC 011:132 JLINK_ReadMem (0x20001918, 0x0004 Bytes, ...) -- Read from C cache (4 bytes @ 0x20001918) - Data: 00 00 00 00  returns 0x00 (0000ms, 0794ms total)
T22CC 011:132 JLINK_ReadMem (0x20001924, 0x0004 Bytes, ...) -- Read from C cache (4 bytes @ 0x20001924) - Data: A3 01 00 08  returns 0x00 (0000ms, 0794ms total)
T22CC 011:132 JLINK_ReadMemU32(0xE0001004, 0x0001 Items, ...) - Data: 55 0D 00 00  returns 0x01 (0000ms, 0794ms total)
T22CC 011:135 JLINK_ReadMem (0x08000566, 0x0002 Bytes, ...) -- Read from C cache (2 bytes @ 0x08000566) - Data: 00 F0  returns 0x00 (0000ms, 0794ms total)
T22CC 011:135 JLINK_ReadMem (0x08000568, 0x003C Bytes, ...) -- Read from C cache (60 bytes @ 0x08000568) - Data: 12 F8 00 F0 E3 FA 00 F0 F1 FA 00 F0 03 FB 00 F0 ...  returns 0x00 (0000ms, 0794ms total)
T1D08 011:349 JLINK_Step() -- Read from C cache (2 bytes @ 0x08000566) -- Read from C cache (2 bytes @ 0x08000568) -- Simulated  returns 0x00 (0000ms, 0794ms total)
T1D08 011:349 JLINK_ReadReg(R15 (PC))  returns 0x0800058E (0000ms, 0794ms total)
T1D08 011:349 JLINK_ReadReg(XPSR)  returns 0x21000000 (0000ms, 0794ms total)
T1D08 011:349 JLINK_ReadReg(R0)  returns 0x20001128 (0000ms, 0794ms total)
T1D08 011:349 JLINK_ReadReg(R1)  returns 0x20001528 (0000ms, 0794ms total)
T1D08 011:349 JLINK_ReadReg(R2)  returns 0x20001528 (0000ms, 0794ms total)
T1D08 011:349 JLINK_ReadReg(R3)  returns 0x20001528 (0000ms, 0794ms total)
T1D08 011:349 JLINK_ReadReg(R4)  returns 0x00000000 (0000ms, 0794ms total)
T1D08 011:349 JLINK_ReadReg(R5)  returns 0x200010C4 (0000ms, 0794ms total)
T1D08 011:349 JLINK_ReadReg(R6)  returns 0x00000000 (0000ms, 0794ms total)
T1D08 011:349 JLINK_ReadReg(R7)  returns 0x00000000 (0000ms, 0794ms total)
T1D08 011:349 JLINK_ReadReg(R8)  returns 0x00000000 (0000ms, 0794ms total)
T1D08 011:349 JLINK_ReadReg(R9)  returns 0x09090909 (0000ms, 0794ms total)
T1D08 011:349 JLINK_ReadReg(R10)  returns 0x080012B0 (0000ms, 0794ms total)
T1D08 011:349 JLINK_ReadReg(R11)  returns 0x00000000 (0000ms, 0794ms total)
T1D08 011:349 JLINK_ReadReg(R12)  returns 0x20001104 (0000ms, 0794ms total)
T1D08 011:349 JLINK_ReadReg(R13 (SP))  returns 0x20001918 (0000ms, 0794ms total)
T1D08 011:349 JLINK_ReadReg(R14)  returns 0x0800056B (0000ms, 0794ms total)
T1D08 011:349 JLINK_ReadReg(R15 (PC))  returns 0x0800058E (0000ms, 0794ms total)
T1D08 011:349 JLINK_ReadReg(XPSR)  returns 0x21000000 (0000ms, 0794ms total)
T1D08 011:349 JLINK_ReadReg(MSP)  returns 0x20001918 (0000ms, 0794ms total)
T1D08 011:349 JLINK_ReadReg(PSP)  returns 0x20000B98 (0000ms, 0794ms total)
T1D08 011:349 JLINK_ReadReg(CFBP)  returns 0x00000001 (0000ms, 0794ms total)
T22CC 011:350 JLINK_ReadMem (0x2000191C, 0x0004 Bytes, ...) -- Read from C cache (4 bytes @ 0x2000191C) - Data: 5B 11 00 08  returns 0x00 (0000ms, 0794ms total)
T22CC 011:350 JLINK_ReadMem (0x20001918, 0x0004 Bytes, ...) -- Read from C cache (4 bytes @ 0x20001918) - Data: 00 00 00 00  returns 0x00 (0000ms, 0794ms total)
T22CC 011:350 JLINK_ReadMem (0x20001924, 0x0004 Bytes, ...) -- Read from C cache (4 bytes @ 0x20001924) - Data: A3 01 00 08  returns 0x00 (0000ms, 0794ms total)
T22CC 011:355 JLINK_ReadMemU32(0xE0001004, 0x0001 Items, ...) - Data: 55 0D 00 00  returns 0x01 (0000ms, 0794ms total)
T1D08 011:564 JLINK_ReadMem (0x0800058E, 0x0002 Bytes, ...) -- Read from C cache (2 bytes @ 0x0800058E) - Data: 70 47  returns 0x00 (0000ms, 0794ms total)
T1D08 011:564 JLINK_ReadMem (0x08000590, 0x003C Bytes, ...) -- CPU_ReadMem(64 bytes @ 0x080005C0) -- Updating C cache (64 bytes @ 0x080005C0) -- Read from C cache (60 bytes @ 0x08000590) - Data: 70 47 00 00 70 B5 13 4C E0 79 01 28 21 D1 FF F7 ...  returns 0x00 (0002ms, 0796ms total)
T1D08 011:566 JLINK_Step() -- Read from C cache (2 bytes @ 0x0800058E) -- Simulated  returns 0x00 (0000ms, 0796ms total)
T1D08 011:566 JLINK_ReadReg(R15 (PC))  returns 0x0800056A (0000ms, 0796ms total)
T1D08 011:566 JLINK_ReadReg(XPSR)  returns 0x21000000 (0000ms, 0796ms total)
T1D08 011:566 JLINK_ReadReg(R0)  returns 0x20001128 (0000ms, 0796ms total)
T1D08 011:566 JLINK_ReadReg(R1)  returns 0x20001528 (0000ms, 0796ms total)
T1D08 011:566 JLINK_ReadReg(R2)  returns 0x20001528 (0000ms, 0796ms total)
T1D08 011:566 JLINK_ReadReg(R3)  returns 0x20001528 (0000ms, 0796ms total)
T1D08 011:566 JLINK_ReadReg(R4)  returns 0x00000000 (0000ms, 0796ms total)
T1D08 011:566 JLINK_ReadReg(R5)  returns 0x200010C4 (0000ms, 0796ms total)
T1D08 011:566 JLINK_ReadReg(R6)  returns 0x00000000 (0000ms, 0796ms total)
T1D08 011:566 JLINK_ReadReg(R7)  returns 0x00000000 (0000ms, 0796ms total)
T1D08 011:566 JLINK_ReadReg(R8)  returns 0x00000000 (0000ms, 0796ms total)
T1D08 011:566 JLINK_ReadReg(R9)  returns 0x09090909 (0000ms, 0796ms total)
T1D08 011:566 JLINK_ReadReg(R10)  returns 0x080012B0 (0000ms, 0796ms total)
T1D08 011:566 JLINK_ReadReg(R11)  returns 0x00000000 (0000ms, 0796ms total)
T1D08 011:566 JLINK_ReadReg(R12)  returns 0x20001104 (0000ms, 0796ms total)
T1D08 011:566 JLINK_ReadReg(R13 (SP))  returns 0x20001918 (0000ms, 0796ms total)
T1D08 011:566 JLINK_ReadReg(R14)  returns 0x0800056B (0000ms, 0796ms total)
T1D08 011:566 JLINK_ReadReg(R15 (PC))  returns 0x0800056A (0000ms, 0796ms total)
T1D08 011:566 JLINK_ReadReg(XPSR)  returns 0x21000000 (0000ms, 0796ms total)
T1D08 011:566 JLINK_ReadReg(MSP)  returns 0x20001918 (0000ms, 0796ms total)
T1D08 011:566 JLINK_ReadReg(PSP)  returns 0x20000B98 (0000ms, 0796ms total)
T1D08 011:566 JLINK_ReadReg(CFBP)  returns 0x00000001 (0000ms, 0796ms total)
T22CC 011:568 JLINK_ReadMem (0x2000191C, 0x0004 Bytes, ...) -- Read from C cache (4 bytes @ 0x2000191C) - Data: 5B 11 00 08  returns 0x00 (0000ms, 0796ms total)
T22CC 011:568 JLINK_ReadMem (0x20001918, 0x0004 Bytes, ...) -- Read from C cache (4 bytes @ 0x20001918) - Data: 00 00 00 00  returns 0x00 (0000ms, 0796ms total)
T22CC 011:568 JLINK_ReadMem (0x20001924, 0x0004 Bytes, ...) -- Read from C cache (4 bytes @ 0x20001924) - Data: A3 01 00 08  returns 0x00 (0000ms, 0796ms total)
T22CC 011:577 JLINK_ReadMemU32(0xE0001004, 0x0001 Items, ...) - Data: 55 0D 00 00  returns 0x01 (0000ms, 0796ms total)
T22CC 011:581 JLINK_ReadMem (0x0800056A, 0x0002 Bytes, ...) -- Read from C cache (2 bytes @ 0x0800056A) - Data: 00 F0  returns 0x00 (0000ms, 0796ms total)
T22CC 011:581 JLINK_ReadMem (0x0800056C, 0x003C Bytes, ...) -- Read from C cache (60 bytes @ 0x0800056C) - Data: E3 FA 00 F0 F1 FA 00 F0 03 FB 00 F0 BB FA 00 F0 ...  returns 0x00 (0000ms, 0796ms total)
T22CC 011:596 JLINK_ReadMem (0x08000566, 0x0002 Bytes, ...) -- Read from C cache (2 bytes @ 0x08000566) - Data: 00 F0  returns 0x00 (0000ms, 0796ms total)
T22CC 011:596 JLINK_ReadMem (0x08000568, 0x003C Bytes, ...) -- Read from C cache (60 bytes @ 0x08000568) - Data: 12 F8 00 F0 E3 FA 00 F0 F1 FA 00 F0 03 FB 00 F0 ...  returns 0x00 (0000ms, 0796ms total)
T1D08 012:260 JLINK_Step() -- Read from C cache (2 bytes @ 0x0800056A) -- Read from C cache (2 bytes @ 0x0800056C) -- Simulated  returns 0x00 (0003ms, 0799ms total)
T1D08 012:263 JLINK_ReadReg(R15 (PC))  returns 0x08000B34 (0000ms, 0799ms total)
T1D08 012:263 JLINK_ReadReg(XPSR)  returns 0x21000000 (0000ms, 0799ms total)
T1D08 012:263 JLINK_ReadMem (0x08000B34, 0x003C Bytes, ...) -- CPU_ReadMem(128 bytes @ 0x08000B00) -- Updating C cache (128 bytes @ 0x08000B00) -- Read from C cache (60 bytes @ 0x08000B34) - Data: 06 48 00 21 41 63 81 70 C1 70 01 72 C1 71 C1 60 ...  returns 0x00 (0002ms, 0801ms total)
T1D08 012:265 JLINK_Step() -- Read from C cache (2 bytes @ 0x08000B34) -- Read from C cache (4 bytes @ 0x08000B50) -- Simulated  returns 0x00 (0000ms, 0801ms total)
T1D08 012:265 JLINK_ReadReg(R15 (PC))  returns 0x08000B36 (0000ms, 0801ms total)
T1D08 012:265 JLINK_ReadReg(XPSR)  returns 0x21000000 (0000ms, 0801ms total)
T1D08 012:265 JLINK_Step() -- Read from C cache (2 bytes @ 0x08000B36) -- Simulated  returns 0x00 (0000ms, 0801ms total)
T1D08 012:265 JLINK_ReadReg(R15 (PC))  returns 0x08000B38 (0000ms, 0801ms total)
T1D08 012:265 JLINK_ReadReg(XPSR)  returns 0x61000000 (0000ms, 0801ms total)
T1D08 012:265 JLINK_Step() -- Read from C cache (2 bytes @ 0x08000B38) -- CPU_WriteMem(4 bytes @ 0x20000050) -- Simulated  returns 0x00 (0001ms, 0802ms total)
T1D08 012:266 JLINK_ReadReg(R15 (PC))  returns 0x08000B3A (0000ms, 0802ms total)
T1D08 012:266 JLINK_ReadReg(XPSR)  returns 0x61000000 (0000ms, 0802ms total)
T1D08 012:266 JLINK_ReadReg(R0)  returns 0x2000001C (0000ms, 0802ms total)
T1D08 012:266 JLINK_ReadReg(R1)  returns 0x00000000 (0000ms, 0802ms total)
T1D08 012:266 JLINK_ReadReg(R2)  returns 0x20001528 (0000ms, 0802ms total)
T1D08 012:266 JLINK_ReadReg(R3)  returns 0x20001528 (0000ms, 0802ms total)
T1D08 012:266 JLINK_ReadReg(R4)  returns 0x00000000 (0000ms, 0802ms total)
T1D08 012:266 JLINK_ReadReg(R5)  returns 0x200010C4 (0000ms, 0802ms total)
T1D08 012:266 JLINK_ReadReg(R6)  returns 0x00000000 (0000ms, 0802ms total)
T1D08 012:266 JLINK_ReadReg(R7)  returns 0x00000000 (0000ms, 0802ms total)
T1D08 012:266 JLINK_ReadReg(R8)  returns 0x00000000 (0000ms, 0802ms total)
T1D08 012:266 JLINK_ReadReg(R9)  returns 0x09090909 (0000ms, 0802ms total)
T1D08 012:266 JLINK_ReadReg(R10)  returns 0x080012B0 (0000ms, 0802ms total)
T1D08 012:266 JLINK_ReadReg(R11)  returns 0x00000000 (0000ms, 0802ms total)
T1D08 012:266 JLINK_ReadReg(R12)  returns 0x20001104 (0000ms, 0802ms total)
T1D08 012:266 JLINK_ReadReg(R13 (SP))  returns 0x20001918 (0000ms, 0802ms total)
T1D08 012:266 JLINK_ReadReg(R14)  returns 0x0800056F (0000ms, 0802ms total)
T1D08 012:266 JLINK_ReadReg(R15 (PC))  returns 0x08000B3A (0000ms, 0802ms total)
T1D08 012:266 JLINK_ReadReg(XPSR)  returns 0x61000000 (0000ms, 0802ms total)
T1D08 012:266 JLINK_ReadReg(MSP)  returns 0x20001918 (0000ms, 0802ms total)
T1D08 012:266 JLINK_ReadReg(PSP)  returns 0x20000B98 (0000ms, 0802ms total)
T1D08 012:266 JLINK_ReadReg(CFBP)  returns 0x00000001 (0000ms, 0802ms total)
T22CC 012:268 JLINK_ReadMem (0x2000191C, 0x0004 Bytes, ...) -- Read from C cache (4 bytes @ 0x2000191C) - Data: 5B 11 00 08  returns 0x00 (0000ms, 0802ms total)
T22CC 012:268 JLINK_ReadMem (0x20001918, 0x0004 Bytes, ...) -- Read from C cache (4 bytes @ 0x20001918) - Data: 00 00 00 00  returns 0x00 (0000ms, 0802ms total)
T22CC 012:268 JLINK_ReadMem (0x20001924, 0x0004 Bytes, ...) -- Read from C cache (4 bytes @ 0x20001924) - Data: A3 01 00 08  returns 0x00 (0000ms, 0802ms total)
T22CC 012:273 JLINK_ReadMemU32(0xE0001004, 0x0001 Items, ...) - Data: 55 0D 00 00  returns 0x01 (0000ms, 0802ms total)
T22CC 012:285 JLINK_ReadMem (0x08000B3A, 0x0002 Bytes, ...) -- Read from C cache (2 bytes @ 0x08000B3A) - Data: 81 70  returns 0x00 (0000ms, 0802ms total)
T22CC 012:285 JLINK_ReadMem (0x08000B3C, 0x003C Bytes, ...) -- Read from C cache (60 bytes @ 0x08000B3C) - Data: C1 70 01 72 C1 71 C1 60 01 62 81 61 41 61 41 70 ...  returns 0x00 (0000ms, 0802ms total)
T1D08 013:692 JLINK_Step() -- Read from C cache (2 bytes @ 0x08000B3A) -- CPU_WriteMem(1 bytes @ 0x2000001E) -- Simulated  returns 0x00 (0004ms, 0806ms total)
T1D08 013:696 JLINK_ReadReg(R15 (PC))  returns 0x08000B3C (0000ms, 0806ms total)
T1D08 013:696 JLINK_ReadReg(XPSR)  returns 0x61000000 (0000ms, 0806ms total)
T1D08 013:696 JLINK_ReadReg(R0)  returns 0x2000001C (0000ms, 0806ms total)
T1D08 013:696 JLINK_ReadReg(R1)  returns 0x00000000 (0000ms, 0806ms total)
T1D08 013:696 JLINK_ReadReg(R2)  returns 0x20001528 (0000ms, 0806ms total)
T1D08 013:696 JLINK_ReadReg(R3)  returns 0x20001528 (0000ms, 0806ms total)
T1D08 013:696 JLINK_ReadReg(R4)  returns 0x00000000 (0000ms, 0806ms total)
T1D08 013:696 JLINK_ReadReg(R5)  returns 0x200010C4 (0000ms, 0806ms total)
T1D08 013:696 JLINK_ReadReg(R6)  returns 0x00000000 (0000ms, 0806ms total)
T1D08 013:696 JLINK_ReadReg(R7)  returns 0x00000000 (0000ms, 0806ms total)
T1D08 013:696 JLINK_ReadReg(R8)  returns 0x00000000 (0000ms, 0806ms total)
T1D08 013:696 JLINK_ReadReg(R9)  returns 0x09090909 (0000ms, 0806ms total)
T1D08 013:696 JLINK_ReadReg(R10)  returns 0x080012B0 (0000ms, 0806ms total)
T1D08 013:696 JLINK_ReadReg(R11)  returns 0x00000000 (0000ms, 0806ms total)
T1D08 013:696 JLINK_ReadReg(R12)  returns 0x20001104 (0000ms, 0806ms total)
T1D08 013:696 JLINK_ReadReg(R13 (SP))  returns 0x20001918 (0000ms, 0806ms total)
T1D08 013:696 JLINK_ReadReg(R14)  returns 0x0800056F (0000ms, 0806ms total)
T1D08 013:696 JLINK_ReadReg(R15 (PC))  returns 0x08000B3C (0000ms, 0806ms total)
T1D08 013:696 JLINK_ReadReg(XPSR)  returns 0x61000000 (0000ms, 0806ms total)
T1D08 013:696 JLINK_ReadReg(MSP)  returns 0x20001918 (0000ms, 0806ms total)
T1D08 013:696 JLINK_ReadReg(PSP)  returns 0x20000B98 (0000ms, 0806ms total)
T1D08 013:696 JLINK_ReadReg(CFBP)  returns 0x00000001 (0000ms, 0806ms total)
T22CC 013:698 JLINK_ReadMem (0x2000191C, 0x0004 Bytes, ...) -- Read from C cache (4 bytes @ 0x2000191C) - Data: 5B 11 00 08  returns 0x00 (0000ms, 0806ms total)
T22CC 013:698 JLINK_ReadMem (0x20001918, 0x0004 Bytes, ...) -- Read from C cache (4 bytes @ 0x20001918) - Data: 00 00 00 00  returns 0x00 (0000ms, 0806ms total)
T22CC 013:698 JLINK_ReadMem (0x20001924, 0x0004 Bytes, ...) -- Read from C cache (4 bytes @ 0x20001924) - Data: A3 01 00 08  returns 0x00 (0000ms, 0806ms total)
T22CC 013:698 JLINK_ReadMemU32(0xE0001004, 0x0001 Items, ...) - Data: 55 0D 00 00  returns 0x01 (0000ms, 0806ms total)
T22CC 013:703 JLINK_ReadMem (0x08000B3C, 0x003C Bytes, ...) -- Read from C cache (60 bytes @ 0x08000B3C) - Data: C1 70 01 72 C1 71 C1 60 01 62 81 61 41 61 41 70 ...  returns 0x00 (0000ms, 0806ms total)
T1D08 014:404 JLINK_Step() -- Read from C cache (2 bytes @ 0x08000B3C) -- CPU_WriteMem(1 bytes @ 0x2000001F) -- Simulated  returns 0x00 (0001ms, 0807ms total)
T1D08 014:405 JLINK_ReadReg(R15 (PC))  returns 0x08000B3E (0001ms, 0808ms total)
T1D08 014:406 JLINK_ReadReg(XPSR)  returns 0x61000000 (0000ms, 0808ms total)
T1D08 014:406 JLINK_ReadReg(R0)  returns 0x2000001C (0000ms, 0808ms total)
T1D08 014:406 JLINK_ReadReg(R1)  returns 0x00000000 (0000ms, 0808ms total)
T1D08 014:406 JLINK_ReadReg(R2)  returns 0x20001528 (0000ms, 0808ms total)
T1D08 014:406 JLINK_ReadReg(R3)  returns 0x20001528 (0000ms, 0808ms total)
T1D08 014:406 JLINK_ReadReg(R4)  returns 0x00000000 (0000ms, 0808ms total)
T1D08 014:406 JLINK_ReadReg(R5)  returns 0x200010C4 (0000ms, 0808ms total)
T1D08 014:406 JLINK_ReadReg(R6)  returns 0x00000000 (0000ms, 0808ms total)
T1D08 014:406 JLINK_ReadReg(R7)  returns 0x00000000 (0000ms, 0808ms total)
T1D08 014:406 JLINK_ReadReg(R8)  returns 0x00000000 (0000ms, 0808ms total)
T1D08 014:406 JLINK_ReadReg(R9)  returns 0x09090909 (0000ms, 0808ms total)
T1D08 014:406 JLINK_ReadReg(R10)  returns 0x080012B0 (0000ms, 0808ms total)
T1D08 014:406 JLINK_ReadReg(R11)  returns 0x00000000 (0000ms, 0808ms total)
T1D08 014:406 JLINK_ReadReg(R12)  returns 0x20001104 (0000ms, 0808ms total)
T1D08 014:406 JLINK_ReadReg(R13 (SP))  returns 0x20001918 (0000ms, 0808ms total)
T1D08 014:406 JLINK_ReadReg(R14)  returns 0x0800056F (0000ms, 0808ms total)
T1D08 014:406 JLINK_ReadReg(R15 (PC))  returns 0x08000B3E (0000ms, 0808ms total)
T1D08 014:406 JLINK_ReadReg(XPSR)  returns 0x61000000 (0000ms, 0808ms total)
T1D08 014:406 JLINK_ReadReg(MSP)  returns 0x20001918 (0000ms, 0808ms total)
T1D08 014:406 JLINK_ReadReg(PSP)  returns 0x20000B98 (0000ms, 0808ms total)
T1D08 014:406 JLINK_ReadReg(CFBP)  returns 0x00000001 (0000ms, 0808ms total)
T22CC 014:409 JLINK_ReadMem (0x2000191C, 0x0004 Bytes, ...) -- Read from C cache (4 bytes @ 0x2000191C) - Data: 5B 11 00 08  returns 0x00 (0000ms, 0808ms total)
T22CC 014:409 JLINK_ReadMem (0x20001918, 0x0004 Bytes, ...) -- Read from C cache (4 bytes @ 0x20001918) - Data: 00 00 00 00  returns 0x00 (0000ms, 0808ms total)
T22CC 014:409 JLINK_ReadMem (0x20001924, 0x0004 Bytes, ...) -- Read from C cache (4 bytes @ 0x20001924) - Data: A3 01 00 08  returns 0x00 (0000ms, 0808ms total)
T22CC 014:409 JLINK_ReadMemU32(0xE0001004, 0x0001 Items, ...) - Data: 55 0D 00 00  returns 0x01 (0000ms, 0808ms total)
T22CC 014:420 JLINK_ReadMem (0x08000B3E, 0x0002 Bytes, ...) -- Read from C cache (2 bytes @ 0x08000B3E) - Data: 01 72  returns 0x00 (0000ms, 0808ms total)
T22CC 014:420 JLINK_ReadMem (0x08000B40, 0x003C Bytes, ...) -- Read from C cache (60 bytes @ 0x08000B40) - Data: C1 71 C1 60 01 62 81 61 41 61 41 70 70 47 00 00 ...  returns 0x00 (0000ms, 0808ms total)
T1D08 014:829 JLINK_Step() -- Read from C cache (2 bytes @ 0x08000B3E) -- CPU_WriteMem(1 bytes @ 0x20000024) -- Simulated  returns 0x00 (0001ms, 0809ms total)
T1D08 014:830 JLINK_ReadReg(R15 (PC))  returns 0x08000B40 (0000ms, 0809ms total)
T1D08 014:830 JLINK_ReadReg(XPSR)  returns 0x61000000 (0001ms, 0810ms total)
T1D08 014:831 JLINK_ReadReg(R0)  returns 0x2000001C (0000ms, 0810ms total)
T1D08 014:831 JLINK_ReadReg(R1)  returns 0x00000000 (0000ms, 0810ms total)
T1D08 014:831 JLINK_ReadReg(R2)  returns 0x20001528 (0000ms, 0810ms total)
T1D08 014:831 JLINK_ReadReg(R3)  returns 0x20001528 (0000ms, 0810ms total)
T1D08 014:831 JLINK_ReadReg(R4)  returns 0x00000000 (0000ms, 0810ms total)
T1D08 014:831 JLINK_ReadReg(R5)  returns 0x200010C4 (0000ms, 0810ms total)
T1D08 014:831 JLINK_ReadReg(R6)  returns 0x00000000 (0000ms, 0810ms total)
T1D08 014:831 JLINK_ReadReg(R7)  returns 0x00000000 (0000ms, 0810ms total)
T1D08 014:831 JLINK_ReadReg(R8)  returns 0x00000000 (0000ms, 0810ms total)
T1D08 014:831 JLINK_ReadReg(R9)  returns 0x09090909 (0000ms, 0810ms total)
T1D08 014:831 JLINK_ReadReg(R10)  returns 0x080012B0 (0000ms, 0810ms total)
T1D08 014:831 JLINK_ReadReg(R11)  returns 0x00000000 (0000ms, 0810ms total)
T1D08 014:831 JLINK_ReadReg(R12)  returns 0x20001104 (0000ms, 0810ms total)
T1D08 014:831 JLINK_ReadReg(R13 (SP))  returns 0x20001918 (0000ms, 0810ms total)
T1D08 014:831 JLINK_ReadReg(R14)  returns 0x0800056F (0000ms, 0810ms total)
T1D08 014:831 JLINK_ReadReg(R15 (PC))  returns 0x08000B40 (0000ms, 0810ms total)
T1D08 014:831 JLINK_ReadReg(XPSR)  returns 0x61000000 (0000ms, 0810ms total)
T1D08 014:831 JLINK_ReadReg(MSP)  returns 0x20001918 (0000ms, 0810ms total)
T1D08 014:831 JLINK_ReadReg(PSP)  returns 0x20000B98 (0000ms, 0810ms total)
T1D08 014:831 JLINK_ReadReg(CFBP)  returns 0x00000001 (0000ms, 0810ms total)
T22CC 014:834 JLINK_ReadMem (0x2000191C, 0x0004 Bytes, ...) -- Read from C cache (4 bytes @ 0x2000191C) - Data: 5B 11 00 08  returns 0x00 (0000ms, 0810ms total)
T22CC 014:834 JLINK_ReadMem (0x20001918, 0x0004 Bytes, ...) -- Read from C cache (4 bytes @ 0x20001918) - Data: 00 00 00 00  returns 0x00 (0000ms, 0810ms total)
T22CC 014:834 JLINK_ReadMem (0x20001924, 0x0004 Bytes, ...) -- Read from C cache (4 bytes @ 0x20001924) - Data: A3 01 00 08  returns 0x00 (0000ms, 0810ms total)
T22CC 014:834 JLINK_ReadMemU32(0xE0001004, 0x0001 Items, ...) - Data: 55 0D 00 00  returns 0x01 (0000ms, 0810ms total)
T22CC 014:839 JLINK_ReadMem (0x08000B40, 0x003C Bytes, ...) -- Read from C cache (60 bytes @ 0x08000B40) - Data: C1 71 C1 60 01 62 81 61 41 61 41 70 70 47 00 00 ...  returns 0x00 (0001ms, 0811ms total)
T1D08 015:188 JLINK_Step() -- Read from C cache (2 bytes @ 0x08000B40) -- CPU_WriteMem(1 bytes @ 0x20000023) -- Simulated  returns 0x00 (0001ms, 0812ms total)
T1D08 015:189 JLINK_ReadReg(R15 (PC))  returns 0x08000B42 (0000ms, 0812ms total)
T1D08 015:189 JLINK_ReadReg(XPSR)  returns 0x61000000 (0000ms, 0812ms total)
T1D08 015:190 JLINK_ReadReg(R0)  returns 0x2000001C (0000ms, 0812ms total)
T1D08 015:190 JLINK_ReadReg(R1)  returns 0x00000000 (0000ms, 0812ms total)
T1D08 015:190 JLINK_ReadReg(R2)  returns 0x20001528 (0000ms, 0812ms total)
T1D08 015:190 JLINK_ReadReg(R3)  returns 0x20001528 (0000ms, 0812ms total)
T1D08 015:190 JLINK_ReadReg(R4)  returns 0x00000000 (0000ms, 0812ms total)
T1D08 015:190 JLINK_ReadReg(R5)  returns 0x200010C4 (0000ms, 0812ms total)
T1D08 015:190 JLINK_ReadReg(R6)  returns 0x00000000 (0000ms, 0812ms total)
T1D08 015:190 JLINK_ReadReg(R7)  returns 0x00000000 (0000ms, 0812ms total)
T1D08 015:190 JLINK_ReadReg(R8)  returns 0x00000000 (0000ms, 0812ms total)
T1D08 015:190 JLINK_ReadReg(R9)  returns 0x09090909 (0000ms, 0812ms total)
T1D08 015:190 JLINK_ReadReg(R10)  returns 0x080012B0 (0000ms, 0812ms total)
